
Circuit: ny9t_sub

                                    ny9t_sub
                                    AC Analysis  Fri Jun  9 18:31:40  2006
--------------------------------------------------------------------------------
Index   frequency                       abs(re(i(vload) abs(im(i(vload) 
--------------------------------------------------------------------------------
0	1.000000e+08,	0.000000e+00	4.689475e-07	2.615992e-08	
1	1.023293e+08,	0.000000e+00	4.910445e-07	2.709987e-08	
2	1.047129e+08,	0.000000e+00	5.141826e-07	2.808536e-08	
3	1.071519e+08,	0.000000e+00	5.384108e-07	2.911913e-08	
4	1.096478e+08,	0.000000e+00	5.637803e-07	3.020412e-08	
5	1.122018e+08,	0.000000e+00	5.903450e-07	3.134347e-08	
6	1.148154e+08,	0.000000e+00	6.181612e-07	3.254053e-08	
7	1.174898e+08,	0.000000e+00	6.472877e-07	3.379885e-08	
8	1.202264e+08,	0.000000e+00	6.777862e-07	3.512226e-08	
9	1.230269e+08,	0.000000e+00	7.097214e-07	3.651484e-08	
10	1.258925e+08,	0.000000e+00	7.431610e-07	3.798093e-08	
11	1.288250e+08,	0.000000e+00	7.781756e-07	3.952518e-08	
12	1.318257e+08,	0.000000e+00	8.148395e-07	4.115256e-08	
13	1.348963e+08,	0.000000e+00	8.532304e-07	4.286838e-08	
14	1.380384e+08,	0.000000e+00	8.934294e-07	4.467830e-08	
15	1.412538e+08,	0.000000e+00	9.355218e-07	4.658840e-08	
16	1.445440e+08,	0.000000e+00	9.795966e-07	4.860515e-08	
17	1.479108e+08,	0.000000e+00	1.025747e-06	5.073548e-08	
18	1.513561e+08,	0.000000e+00	1.074071e-06	5.298680e-08	
19	1.548817e+08,	0.000000e+00	1.124671e-06	5.536702e-08	
20	1.584893e+08,	0.000000e+00	1.177653e-06	5.788462e-08	
21	1.621810e+08,	0.000000e+00	1.233131e-06	6.054865e-08	
22	1.659587e+08,	0.000000e+00	1.291220e-06	6.336879e-08	
23	1.698244e+08,	0.000000e+00	1.352045e-06	6.635540e-08	
24	1.737801e+08,	0.000000e+00	1.415734e-06	6.951957e-08	
25	1.778279e+08,	0.000000e+00	1.482421e-06	7.287314e-08	
26	1.819701e+08,	0.000000e+00	1.552248e-06	7.642880e-08	
27	1.862087e+08,	0.000000e+00	1.625361e-06	8.020011e-08	
28	1.905461e+08,	0.000000e+00	1.701917e-06	8.420160e-08	
29	1.949845e+08,	0.000000e+00	1.782077e-06	8.844878e-08	
30	1.995262e+08,	0.000000e+00	1.866009e-06	9.295828e-08	
31	2.041738e+08,	0.000000e+00	1.953892e-06	9.774788e-08	
32	2.089296e+08,	0.000000e+00	2.045910e-06	1.028366e-07	
33	2.137962e+08,	0.000000e+00	2.142259e-06	1.082449e-07	
34	2.187762e+08,	0.000000e+00	2.243142e-06	1.139944e-07	
35	2.238721e+08,	0.000000e+00	2.348772e-06	1.201086e-07	
36	2.290868e+08,	0.000000e+00	2.459372e-06	1.266123e-07	
37	2.344229e+08,	0.000000e+00	2.575175e-06	1.335324e-07	
38	2.398833e+08,	0.000000e+00	2.696426e-06	1.408975e-07	
39	2.454709e+08,	0.000000e+00	2.823380e-06	1.487381e-07	
40	2.511886e+08,	0.000000e+00	2.956305e-06	1.570871e-07	
41	2.570396e+08,	0.000000e+00	3.095482e-06	1.659796e-07	
42	2.630268e+08,	0.000000e+00	3.241204e-06	1.754531e-07	
43	2.691535e+08,	0.000000e+00	3.393777e-06	1.855479e-07	
44	2.754229e+08,	0.000000e+00	3.553523e-06	1.963070e-07	
45	2.818383e+08,	0.000000e+00	3.720780e-06	2.077766e-07	
46	2.884032e+08,	0.000000e+00	3.895897e-06	2.200060e-07	
47	2.951209e+08,	0.000000e+00	4.079245e-06	2.330481e-07	
48	3.019952e+08,	0.000000e+00	4.271209e-06	2.469595e-07	
49	3.090295e+08,	0.000000e+00	4.472193e-06	2.618008e-07	
50	3.162278e+08,	0.000000e+00	4.682618e-06	2.776368e-07	
51	3.235937e+08,	0.000000e+00	4.902927e-06	2.945371e-07	
52	3.311311e+08,	0.000000e+00	5.133584e-06	3.125760e-07	
53	3.388442e+08,	0.000000e+00	5.375070e-06	3.318332e-07	
54	3.467369e+08,	0.000000e+00	5.627895e-06	3.523940e-07	

Index   frequency                       abs(re(i(vload) abs(im(i(vload) 
--------------------------------------------------------------------------------
55	3.548134e+08,	0.000000e+00	5.892586e-06	3.743498e-07	
56	3.630781e+08,	0.000000e+00	6.169700e-06	3.977982e-07	
57	3.715352e+08,	0.000000e+00	6.459817e-06	4.228441e-07	
58	3.801894e+08,	0.000000e+00	6.763544e-06	4.495996e-07	
59	3.890451e+08,	0.000000e+00	7.081516e-06	4.781846e-07	
60	3.981072e+08,	0.000000e+00	7.414397e-06	5.087280e-07	
61	4.073803e+08,	0.000000e+00	7.762885e-06	5.413672e-07	
62	4.168694e+08,	0.000000e+00	8.127705e-06	5.762497e-07	
63	4.265795e+08,	0.000000e+00	8.509619e-06	6.135334e-07	
64	4.365158e+08,	0.000000e+00	8.909423e-06	6.533873e-07	
65	4.466836e+08,	0.000000e+00	9.327950e-06	6.959924e-07	
66	4.570882e+08,	0.000000e+00	9.766070e-06	7.415425e-07	
67	4.677351e+08,	0.000000e+00	1.022470e-05	7.902451e-07	
68	4.786301e+08,	0.000000e+00	1.070478e-05	8.423224e-07	
69	4.897788e+08,	0.000000e+00	1.120731e-05	8.980124e-07	
70	5.011872e+08,	0.000000e+00	1.173334e-05	9.575697e-07	
71	5.128614e+08,	0.000000e+00	1.228395e-05	1.021267e-06	
72	5.248075e+08,	0.000000e+00	1.286029e-05	1.089397e-06	
73	5.370318e+08,	0.000000e+00	1.346353e-05	1.162271e-06	
74	5.495409e+08,	0.000000e+00	1.409494e-05	1.240225e-06	
75	5.623413e+08,	0.000000e+00	1.475580e-05	1.323616e-06	
76	5.754399e+08,	0.000000e+00	1.544748e-05	1.412830e-06	
77	5.888437e+08,	0.000000e+00	1.617139e-05	1.508275e-06	
78	6.025596e+08,	0.000000e+00	1.692903e-05	1.610392e-06	
79	6.165950e+08,	0.000000e+00	1.772195e-05	1.719652e-06	
80	6.309573e+08,	0.000000e+00	1.855176e-05	1.836559e-06	
81	6.456542e+08,	0.000000e+00	1.942016e-05	1.961651e-06	
82	6.606934e+08,	0.000000e+00	2.032891e-05	2.095507e-06	
83	6.760830e+08,	0.000000e+00	2.127988e-05	2.238743e-06	
84	6.918310e+08,	0.000000e+00	2.227497e-05	2.392021e-06	
85	7.079458e+08,	0.000000e+00	2.331622e-05	2.556050e-06	
86	7.244360e+08,	0.000000e+00	2.440571e-05	2.731586e-06	
87	7.413102e+08,	0.000000e+00	2.554566e-05	2.919440e-06	
88	7.585776e+08,	0.000000e+00	2.673835e-05	3.120480e-06	
89	7.762471e+08,	0.000000e+00	2.798616e-05	3.335633e-06	
90	7.943282e+08,	0.000000e+00	2.929160e-05	3.565892e-06	
91	8.128305e+08,	0.000000e+00	3.065727e-05	3.812321e-06	
92	8.317638e+08,	0.000000e+00	3.208589e-05	4.076055e-06	
93	8.511380e+08,	0.000000e+00	3.358028e-05	4.358311e-06	
94	8.709636e+08,	0.000000e+00	3.514339e-05	4.660389e-06	
95	8.912509e+08,	0.000000e+00	3.677831e-05	4.983680e-06	
96	9.120108e+08,	0.000000e+00	3.848824e-05	5.329673e-06	
97	9.332543e+08,	0.000000e+00	4.027651e-05	5.699957e-06	
98	9.549926e+08,	0.000000e+00	4.214662e-05	6.096236e-06	
99	9.772372e+08,	0.000000e+00	4.410217e-05	6.520328e-06	
100	1.000000e+09,	0.000000e+00	4.614695e-05	6.974178e-06	
101	1.023293e+09,	0.000000e+00	4.828488e-05	7.459866e-06	
102	1.047129e+09,	0.000000e+00	5.052004e-05	7.979614e-06	
103	1.071519e+09,	0.000000e+00	5.285669e-05	8.535798e-06	
104	1.096478e+09,	0.000000e+00	5.529923e-05	9.130956e-06	
105	1.122018e+09,	0.000000e+00	5.785226e-05	9.767802e-06	
106	1.148154e+09,	0.000000e+00	6.052054e-05	1.044923e-05	
107	1.174898e+09,	0.000000e+00	6.330904e-05	1.117834e-05	
108	1.202264e+09,	0.000000e+00	6.622289e-05	1.195844e-05	
109	1.230269e+09,	0.000000e+00	6.926743e-05	1.279306e-05	
110	1.258925e+09,	0.000000e+00	7.244818e-05	1.368597e-05	
111	1.288250e+09,	0.000000e+00	7.577089e-05	1.464120e-05	
112	1.318257e+09,	0.000000e+00	7.924149e-05	1.566304e-05	

Index   frequency                       abs(re(i(vload) abs(im(i(vload) 
--------------------------------------------------------------------------------
113	1.348963e+09,	0.000000e+00	8.286614e-05	1.675609e-05	
114	1.380384e+09,	0.000000e+00	8.665120e-05	1.792522e-05	
115	1.412538e+09,	0.000000e+00	9.060326e-05	1.917568e-05	
116	1.445440e+09,	0.000000e+00	9.472912e-05	2.051301e-05	
117	1.479108e+09,	0.000000e+00	9.903581e-05	2.194317e-05	
118	1.513561e+09,	0.000000e+00	1.035306e-04	2.347249e-05	
119	1.548817e+09,	0.000000e+00	1.082209e-04	2.510770e-05	
120	1.584893e+09,	0.000000e+00	1.131144e-04	2.685601e-05	
121	1.621810e+09,	0.000000e+00	1.182192e-04	2.872508e-05	
122	1.659587e+09,	0.000000e+00	1.235432e-04	3.072306e-05	
123	1.698244e+09,	0.000000e+00	1.290950e-04	3.285864e-05	
124	1.737801e+09,	0.000000e+00	1.348830e-04	3.514107e-05	
125	1.778279e+09,	0.000000e+00	1.409161e-04	3.758019e-05	
126	1.819701e+09,	0.000000e+00	1.472032e-04	4.018646e-05	
127	1.862087e+09,	0.000000e+00	1.537536e-04	4.297103e-05	
128	1.905461e+09,	0.000000e+00	1.605766e-04	4.594572e-05	
129	1.949845e+09,	0.000000e+00	1.676818e-04	4.912309e-05	
130	1.995262e+09,	0.000000e+00	1.750789e-04	5.251652e-05	
131	2.041738e+09,	0.000000e+00	1.827777e-04	5.614017e-05	
132	2.089296e+09,	0.000000e+00	1.907882e-04	6.000909e-05	
133	2.137962e+09,	0.000000e+00	1.991205e-04	6.413924e-05	
134	2.187762e+09,	0.000000e+00	2.077846e-04	6.854754e-05	
135	2.238721e+09,	0.000000e+00	2.167909e-04	7.325193e-05	
136	2.290868e+09,	0.000000e+00	2.261494e-04	7.827139e-05	
137	2.344229e+09,	0.000000e+00	2.358704e-04	8.362604e-05	
138	2.398833e+09,	0.000000e+00	2.459638e-04	8.933714e-05	
139	2.454709e+09,	0.000000e+00	2.564397e-04	9.542717e-05	
140	2.511886e+09,	0.000000e+00	2.673080e-04	1.019199e-04	
141	2.570396e+09,	0.000000e+00	2.785780e-04	1.088404e-04	
142	2.630268e+09,	0.000000e+00	2.902593e-04	1.162151e-04	
143	2.691535e+09,	0.000000e+00	3.023605e-04	1.240720e-04	
144	2.754229e+09,	0.000000e+00	3.148904e-04	1.324405e-04	
145	2.818383e+09,	0.000000e+00	3.278568e-04	1.413514e-04	
146	2.884032e+09,	0.000000e+00	3.412672e-04	1.508374e-04	
147	2.951209e+09,	0.000000e+00	3.551282e-04	1.609326e-04	
148	3.019952e+09,	0.000000e+00	3.694456e-04	1.716728e-04	
149	3.090295e+09,	0.000000e+00	3.842245e-04	1.830958e-04	
150	3.162278e+09,	0.000000e+00	3.994688e-04	1.952410e-04	
151	3.235937e+09,	0.000000e+00	4.151811e-04	2.081495e-04	
152	3.311311e+09,	0.000000e+00	4.313628e-04	2.218644e-04	
153	3.388442e+09,	0.000000e+00	4.480141e-04	2.364308e-04	
154	3.467369e+09,	0.000000e+00	4.651330e-04	2.518955e-04	
155	3.548134e+09,	0.000000e+00	4.827162e-04	2.683073e-04	
156	3.630781e+09,	0.000000e+00	5.007583e-04	2.857169e-04	
157	3.715352e+09,	0.000000e+00	5.192516e-04	3.041767e-04	
158	3.801894e+09,	0.000000e+00	5.381862e-04	3.237414e-04	
159	3.890451e+09,	0.000000e+00	5.575494e-04	3.444672e-04	
160	3.981072e+09,	0.000000e+00	5.773260e-04	3.664122e-04	
161	4.073803e+09,	0.000000e+00	5.974977e-04	3.896363e-04	
162	4.168694e+09,	0.000000e+00	6.180428e-04	4.142008e-04	
163	4.265795e+09,	0.000000e+00	6.389363e-04	4.401689e-04	
164	4.365158e+09,	0.000000e+00	6.601493e-04	4.676048e-04	
165	4.466836e+09,	0.000000e+00	6.816492e-04	4.965743e-04	
166	4.570882e+09,	0.000000e+00	7.033989e-04	5.271442e-04	
167	4.677351e+09,	0.000000e+00	7.253569e-04	5.593822e-04	
168	4.786301e+09,	0.000000e+00	7.474770e-04	5.933564e-04	
169	4.897788e+09,	0.000000e+00	7.697081e-04	6.291358e-04	
170	5.011872e+09,	0.000000e+00	7.919937e-04	6.667892e-04	

Index   frequency                       abs(re(i(vload) abs(im(i(vload) 
--------------------------------------------------------------------------------
171	5.128614e+09,	0.000000e+00	8.142719e-04	7.063852e-04	
172	5.248075e+09,	0.000000e+00	8.364753e-04	7.479920e-04	
173	5.370318e+09,	0.000000e+00	8.585304e-04	7.916769e-04	
174	5.495409e+09,	0.000000e+00	8.803578e-04	8.375057e-04	
175	5.623413e+09,	0.000000e+00	9.018717e-04	8.855427e-04	
176	5.754399e+09,	0.000000e+00	9.229800e-04	9.358497e-04	
177	5.888437e+09,	0.000000e+00	9.435842e-04	9.884858e-04	
178	6.025596e+09,	0.000000e+00	9.635793e-04	1.043507e-03	
179	6.165950e+09,	0.000000e+00	9.828535e-04	1.100965e-03	
180	6.309573e+09,	0.000000e+00	1.001289e-03	1.160907e-03	
181	6.456542e+09,	0.000000e+00	1.018760e-03	1.223376e-03	
182	6.606934e+09,	0.000000e+00	1.035136e-03	1.288408e-03	
183	6.760830e+09,	0.000000e+00	1.050280e-03	1.356033e-03	
184	6.918310e+09,	0.000000e+00	1.064049e-03	1.426275e-03	
185	7.079458e+09,	0.000000e+00	1.076293e-03	1.499149e-03	
186	7.244360e+09,	0.000000e+00	1.086858e-03	1.574663e-03	
187	7.413102e+09,	0.000000e+00	1.095585e-03	1.652812e-03	
188	7.585776e+09,	0.000000e+00	1.102311e-03	1.733587e-03	
189	7.762471e+09,	0.000000e+00	1.106868e-03	1.816965e-03	
190	7.943282e+09,	0.000000e+00	1.109085e-03	1.902912e-03	
191	8.128305e+09,	0.000000e+00	1.108791e-03	1.991384e-03	
192	8.317638e+09,	0.000000e+00	1.105810e-03	2.082324e-03	
193	8.511380e+09,	0.000000e+00	1.099968e-03	2.175663e-03	
194	8.709636e+09,	0.000000e+00	1.091090e-03	2.271318e-03	
195	8.912509e+09,	0.000000e+00	1.079003e-03	2.369195e-03	
196	9.120108e+09,	0.000000e+00	1.063535e-03	2.469183e-03	
197	9.332543e+09,	0.000000e+00	1.044519e-03	2.571161e-03	
198	9.549926e+09,	0.000000e+00	1.021791e-03	2.674993e-03	
199	9.772372e+09,	0.000000e+00	9.951956e-04	2.780529e-03	
200	1.000000e+10,	0.000000e+00	9.645811e-04	2.887606e-03	
201	1.023293e+10,	0.000000e+00	9.298058e-04	2.996048e-03	
202	1.047129e+10,	0.000000e+00	8.907373e-04	3.105667e-03	
203	1.071519e+10,	0.000000e+00	8.472535e-04	3.216262e-03	
204	1.096478e+10,	0.000000e+00	7.992443e-04	3.327619e-03	
205	1.122018e+10,	0.000000e+00	7.466124e-04	3.439518e-03	
206	1.148154e+10,	0.000000e+00	6.892744e-04	3.551724e-03	
207	1.174898e+10,	0.000000e+00	6.271618e-04	3.663997e-03	
208	1.202264e+10,	0.000000e+00	5.602221e-04	3.776088e-03	
209	1.230269e+10,	0.000000e+00	4.884193e-04	3.887741e-03	
210	1.258925e+10,	0.000000e+00	4.117347e-04	3.998696e-03	
211	1.288250e+10,	0.000000e+00	3.301674e-04	4.108689e-03	
212	1.318257e+10,	0.000000e+00	2.437351e-04	4.217454e-03	
213	1.348963e+10,	0.000000e+00	1.524737e-04	4.324724e-03	
214	1.380384e+10,	0.000000e+00	5.643810e-05	4.430233e-03	
215	1.412538e+10,	0.000000e+00	4.429813e-05	4.533716e-03	
216	1.445440e+10,	0.000000e+00	1.496428e-04	4.634915e-03	
217	1.479108e+10,	0.000000e+00	2.594855e-04	4.733575e-03	
218	1.513561e+10,	0.000000e+00	3.736980e-04	4.829449e-03	
219	1.548817e+10,	0.000000e+00	4.921346e-04	4.922299e-03	
220	1.584893e+10,	0.000000e+00	6.146335e-04	5.011894e-03	
221	1.621810e+10,	0.000000e+00	7.410169e-04	5.098019e-03	
222	1.659587e+10,	0.000000e+00	8.710927e-04	5.180468e-03	
223	1.698244e+10,	0.000000e+00	1.004655e-03	5.259050e-03	
224	1.737801e+10,	0.000000e+00	1.141486e-03	5.333588e-03	
225	1.778279e+10,	0.000000e+00	1.281357e-03	5.403920e-03	
226	1.819701e+10,	0.000000e+00	1.424028e-03	5.469903e-03	
227	1.862087e+10,	0.000000e+00	1.569253e-03	5.531408e-03	
228	1.905461e+10,	0.000000e+00	1.716779e-03	5.588324e-03	

Index   frequency                       abs(re(i(vload) abs(im(i(vload) 
--------------------------------------------------------------------------------
229	1.949845e+10,	0.000000e+00	1.866346e-03	5.640559e-03	
230	1.995262e+10,	0.000000e+00	2.017691e-03	5.688038e-03	
231	2.041738e+10,	0.000000e+00	2.170551e-03	5.730704e-03	
232	2.089296e+10,	0.000000e+00	2.324658e-03	5.768518e-03	
233	2.137962e+10,	0.000000e+00	2.479748e-03	5.801459e-03	
234	2.187762e+10,	0.000000e+00	2.635557e-03	5.829524e-03	
235	2.238721e+10,	0.000000e+00	2.791825e-03	5.852724e-03	
236	2.290868e+10,	0.000000e+00	2.948298e-03	5.871089e-03	
237	2.344229e+10,	0.000000e+00	3.104725e-03	5.884664e-03	
238	2.398833e+10,	0.000000e+00	3.260864e-03	5.893509e-03	
239	2.454709e+10,	0.000000e+00	3.416479e-03	5.897698e-03	
240	2.511886e+10,	0.000000e+00	3.571343e-03	5.897317e-03	
241	2.570396e+10,	0.000000e+00	3.725241e-03	5.892465e-03	
242	2.630268e+10,	0.000000e+00	3.877964e-03	5.883253e-03	
243	2.691535e+10,	0.000000e+00	4.029317e-03	5.869802e-03	
244	2.754229e+10,	0.000000e+00	4.179114e-03	5.852240e-03	
245	2.818383e+10,	0.000000e+00	4.327182e-03	5.830705e-03	
246	2.884032e+10,	0.000000e+00	4.473358e-03	5.805343e-03	
247	2.951209e+10,	0.000000e+00	4.617494e-03	5.776304e-03	
248	3.019952e+10,	0.000000e+00	4.759450e-03	5.743744e-03	
249	3.090295e+10,	0.000000e+00	4.899102e-03	5.707823e-03	
250	3.162278e+10,	0.000000e+00	5.036335e-03	5.668704e-03	
251	3.235937e+10,	0.000000e+00	5.171047e-03	5.626552e-03	
252	3.311311e+10,	0.000000e+00	5.303147e-03	5.581534e-03	
253	3.388442e+10,	0.000000e+00	5.432557e-03	5.533817e-03	
254	3.467369e+10,	0.000000e+00	5.559208e-03	5.483567e-03	
255	3.548134e+10,	0.000000e+00	5.683043e-03	5.430951e-03	
256	3.630781e+10,	0.000000e+00	5.804015e-03	5.376134e-03	
257	3.715352e+10,	0.000000e+00	5.922084e-03	5.319278e-03	
258	3.801894e+10,	0.000000e+00	6.037225e-03	5.260542e-03	
259	3.890451e+10,	0.000000e+00	6.149416e-03	5.200083e-03	
260	3.981072e+10,	0.000000e+00	6.258647e-03	5.138054e-03	
261	4.073803e+10,	0.000000e+00	6.364915e-03	5.074603e-03	
262	4.168694e+10,	0.000000e+00	6.468224e-03	5.009877e-03	
263	4.265795e+10,	0.000000e+00	6.568584e-03	4.944013e-03	
264	4.365158e+10,	0.000000e+00	6.666013e-03	4.877149e-03	
265	4.466836e+10,	0.000000e+00	6.760534e-03	4.809415e-03	
266	4.570882e+10,	0.000000e+00	6.852174e-03	4.740935e-03	
267	4.677351e+10,	0.000000e+00	6.940968e-03	4.671830e-03	
268	4.786301e+10,	0.000000e+00	7.026952e-03	4.602214e-03	
269	4.897788e+10,	0.000000e+00	7.110168e-03	4.532198e-03	
