
Circuit: ny9t_nosub

                                   ny9t_nosub
                                   AC Analysis  Fri Jun  9 18:24:08  2006
--------------------------------------------------------------------------------
Index   frequency                       abs(re(i(vload) abs(im(i(vload) 
--------------------------------------------------------------------------------
0	1.000000e+08,	0.000000e+00	5.698363e-11	1.930398e-08	
1	1.023293e+08,	0.000000e+00	5.966915e-11	1.975364e-08	
2	1.047129e+08,	0.000000e+00	6.248124e-11	2.021377e-08	
3	1.071519e+08,	0.000000e+00	6.542585e-11	2.068462e-08	
4	1.096478e+08,	0.000000e+00	6.850923e-11	2.116644e-08	
5	1.122018e+08,	0.000000e+00	7.173792e-11	2.165948e-08	
6	1.148154e+08,	0.000000e+00	7.511877e-11	2.216401e-08	
7	1.174898e+08,	0.000000e+00	7.865894e-11	2.268029e-08	
8	1.202264e+08,	0.000000e+00	8.236596e-11	2.320860e-08	
9	1.230269e+08,	0.000000e+00	8.624768e-11	2.374921e-08	
10	1.258925e+08,	0.000000e+00	9.031233e-11	2.430242e-08	
11	1.288250e+08,	0.000000e+00	9.456853e-11	2.486852e-08	
12	1.318257e+08,	0.000000e+00	9.902531e-11	2.544780e-08	
13	1.348963e+08,	0.000000e+00	1.036921e-10	2.604058e-08	
14	1.380384e+08,	0.000000e+00	1.085789e-10	2.664717e-08	
15	1.412538e+08,	0.000000e+00	1.136959e-10	2.726788e-08	
16	1.445440e+08,	0.000000e+00	1.190541e-10	2.790306e-08	
17	1.479108e+08,	0.000000e+00	1.246648e-10	2.855304e-08	
18	1.513561e+08,	0.000000e+00	1.305399e-10	2.921815e-08	
19	1.548817e+08,	0.000000e+00	1.366919e-10	2.989877e-08	
20	1.584893e+08,	0.000000e+00	1.431338e-10	3.059523e-08	
21	1.621810e+08,	0.000000e+00	1.498792e-10	3.130793e-08	
22	1.659587e+08,	0.000000e+00	1.569426e-10	3.203722e-08	
23	1.698244e+08,	0.000000e+00	1.643388e-10	3.278351e-08	
24	1.737801e+08,	0.000000e+00	1.720836e-10	3.354719e-08	
25	1.778279e+08,	0.000000e+00	1.801933e-10	3.432865e-08	
26	1.819701e+08,	0.000000e+00	1.886852e-10	3.512832e-08	
27	1.862087e+08,	0.000000e+00	1.975773e-10	3.594663e-08	
28	1.905461e+08,	0.000000e+00	2.068884e-10	3.678399e-08	
29	1.949845e+08,	0.000000e+00	2.166383e-10	3.764087e-08	
30	1.995262e+08,	0.000000e+00	2.268477e-10	3.851771e-08	
31	2.041738e+08,	0.000000e+00	2.375381e-10	3.941498e-08	
32	2.089296e+08,	0.000000e+00	2.487324e-10	4.033316e-08	
33	2.137962e+08,	0.000000e+00	2.604541e-10	4.127273e-08	
34	2.187762e+08,	0.000000e+00	2.727282e-10	4.223419e-08	
35	2.238721e+08,	0.000000e+00	2.855807e-10	4.321805e-08	
36	2.290868e+08,	0.000000e+00	2.990388e-10	4.422484e-08	
37	2.344229e+08,	0.000000e+00	3.131312e-10	4.525508e-08	
38	2.398833e+08,	0.000000e+00	3.278876e-10	4.630933e-08	
39	2.454709e+08,	0.000000e+00	3.433393e-10	4.738815e-08	
40	2.511886e+08,	0.000000e+00	3.595191e-10	4.849211e-08	
41	2.570396e+08,	0.000000e+00	3.764614e-10	4.962179e-08	
42	2.630268e+08,	0.000000e+00	3.942019e-10	5.077779e-08	
43	2.691535e+08,	0.000000e+00	4.127785e-10	5.196074e-08	
44	2.754229e+08,	0.000000e+00	4.322303e-10	5.317125e-08	
45	2.818383e+08,	0.000000e+00	4.525987e-10	5.440997e-08	
46	2.884032e+08,	0.000000e+00	4.739269e-10	5.567756e-08	
47	2.951209e+08,	0.000000e+00	4.962600e-10	5.697469e-08	
48	3.019952e+08,	0.000000e+00	5.196454e-10	5.830205e-08	
49	3.090295e+08,	0.000000e+00	5.441327e-10	5.966035e-08	
50	3.162278e+08,	0.000000e+00	5.697737e-10	6.105030e-08	
51	3.235937e+08,	0.000000e+00	5.966229e-10	6.247266e-08	
52	3.311311e+08,	0.000000e+00	6.247371e-10	6.392816e-08	
53	3.388442e+08,	0.000000e+00	6.541760e-10	6.541759e-08	
54	3.467369e+08,	0.000000e+00	6.850018e-10	6.694174e-08	

Index   frequency                       abs(re(i(vload) abs(im(i(vload) 
--------------------------------------------------------------------------------
55	3.548134e+08,	0.000000e+00	7.172800e-10	6.850142e-08	
56	3.630781e+08,	0.000000e+00	7.510789e-10	7.009746e-08	
57	3.715352e+08,	0.000000e+00	7.864702e-10	7.173071e-08	
58	3.801894e+08,	0.000000e+00	8.235289e-10	7.340203e-08	
59	3.890451e+08,	0.000000e+00	8.623334e-10	7.511232e-08	
60	3.981072e+08,	0.000000e+00	9.029661e-10	7.686248e-08	
61	4.073803e+08,	0.000000e+00	9.455129e-10	7.865345e-08	
62	4.168694e+08,	0.000000e+00	9.900641e-10	8.048619e-08	
63	4.265795e+08,	0.000000e+00	1.036714e-09	8.236166e-08	
64	4.365158e+08,	0.000000e+00	1.085562e-09	8.428086e-08	
65	4.466836e+08,	0.000000e+00	1.136710e-09	8.624483e-08	
66	4.570882e+08,	0.000000e+00	1.190268e-09	8.825459e-08	
67	4.677351e+08,	0.000000e+00	1.246348e-09	9.031124e-08	
68	4.786301e+08,	0.000000e+00	1.305071e-09	9.241585e-08	
69	4.897788e+08,	0.000000e+00	1.366559e-09	9.456956e-08	
70	5.011872e+08,	0.000000e+00	1.430943e-09	9.677352e-08	
71	5.128614e+08,	0.000000e+00	1.498360e-09	9.902889e-08	
72	5.248075e+08,	0.000000e+00	1.568951e-09	1.013369e-07	
73	5.370318e+08,	0.000000e+00	1.642868e-09	1.036987e-07	
74	5.495409e+08,	0.000000e+00	1.720265e-09	1.061157e-07	
75	5.623413e+08,	0.000000e+00	1.801307e-09	1.085891e-07	
76	5.754399e+08,	0.000000e+00	1.886166e-09	1.111202e-07	
77	5.888437e+08,	0.000000e+00	1.975021e-09	1.137103e-07	
78	6.025596e+08,	0.000000e+00	2.068059e-09	1.163610e-07	
79	6.165950e+08,	0.000000e+00	2.165479e-09	1.190735e-07	
80	6.309573e+08,	0.000000e+00	2.267485e-09	1.218494e-07	
81	6.456542e+08,	0.000000e+00	2.374294e-09	1.246900e-07	
82	6.606934e+08,	0.000000e+00	2.486132e-09	1.275971e-07	
83	6.760830e+08,	0.000000e+00	2.603234e-09	1.305720e-07	
84	6.918310e+08,	0.000000e+00	2.725849e-09	1.336164e-07	
85	7.079458e+08,	0.000000e+00	2.854236e-09	1.367320e-07	
86	7.244360e+08,	0.000000e+00	2.988666e-09	1.399203e-07	
87	7.413102e+08,	0.000000e+00	3.129423e-09	1.431832e-07	
88	7.585776e+08,	0.000000e+00	3.276804e-09	1.465223e-07	
89	7.762471e+08,	0.000000e+00	3.431122e-09	1.499395e-07	
90	7.943282e+08,	0.000000e+00	3.592701e-09	1.534366e-07	
91	8.128305e+08,	0.000000e+00	3.761884e-09	1.570155e-07	
92	8.317638e+08,	0.000000e+00	3.939026e-09	1.606780e-07	
93	8.511380e+08,	0.000000e+00	4.124503e-09	1.644263e-07	
94	8.709636e+08,	0.000000e+00	4.318705e-09	1.682623e-07	
95	8.912509e+08,	0.000000e+00	4.522042e-09	1.721881e-07	
96	9.120108e+08,	0.000000e+00	4.734943e-09	1.762057e-07	
97	9.332543e+08,	0.000000e+00	4.957857e-09	1.803175e-07	
98	9.549926e+08,	0.000000e+00	5.191254e-09	1.845255e-07	
99	9.772372e+08,	0.000000e+00	5.435625e-09	1.888321e-07	
100	1.000000e+09,	0.000000e+00	5.691486e-09	1.932397e-07	
101	1.023293e+09,	0.000000e+00	5.959375e-09	1.977505e-07	
102	1.047129e+09,	0.000000e+00	6.239857e-09	2.023671e-07	
103	1.071519e+09,	0.000000e+00	6.533521e-09	2.070920e-07	
104	1.096478e+09,	0.000000e+00	6.840985e-09	2.119278e-07	
105	1.122018e+09,	0.000000e+00	7.162896e-09	2.168770e-07	
106	1.148154e+09,	0.000000e+00	7.499930e-09	2.219425e-07	
107	1.174898e+09,	0.000000e+00	7.852797e-09	2.271269e-07	
108	1.202264e+09,	0.000000e+00	8.222236e-09	2.324331e-07	
109	1.230269e+09,	0.000000e+00	8.609023e-09	2.378640e-07	
110	1.258925e+09,	0.000000e+00	9.013970e-09	2.434227e-07	
111	1.288250e+09,	0.000000e+00	9.437927e-09	2.491121e-07	
112	1.318257e+09,	0.000000e+00	9.881781e-09	2.549354e-07	

Index   frequency                       abs(re(i(vload) abs(im(i(vload) 
--------------------------------------------------------------------------------
113	1.348963e+09,	0.000000e+00	1.034646e-08	2.608958e-07	
114	1.380384e+09,	0.000000e+00	1.083295e-08	2.669967e-07	
115	1.412538e+09,	0.000000e+00	1.134225e-08	2.732414e-07	
116	1.445440e+09,	0.000000e+00	1.187543e-08	2.796333e-07	
117	1.479108e+09,	0.000000e+00	1.243361e-08	2.861761e-07	
118	1.513561e+09,	0.000000e+00	1.301795e-08	2.928734e-07	
119	1.548817e+09,	0.000000e+00	1.362968e-08	2.997289e-07	
120	1.584893e+09,	0.000000e+00	1.427006e-08	3.067465e-07	
121	1.621810e+09,	0.000000e+00	1.494044e-08	3.139301e-07	
122	1.659587e+09,	0.000000e+00	1.564220e-08	3.212838e-07	
123	1.698244e+09,	0.000000e+00	1.637681e-08	3.288117e-07	
124	1.737801e+09,	0.000000e+00	1.714579e-08	3.365181e-07	
125	1.778279e+09,	0.000000e+00	1.795074e-08	3.444074e-07	
126	1.819701e+09,	0.000000e+00	1.879332e-08	3.524840e-07	
127	1.862087e+09,	0.000000e+00	1.967529e-08	3.607527e-07	
128	1.905461e+09,	0.000000e+00	2.059847e-08	3.692181e-07	
129	1.949845e+09,	0.000000e+00	2.156476e-08	3.778852e-07	
130	1.995262e+09,	0.000000e+00	2.257616e-08	3.867588e-07	
131	2.041738e+09,	0.000000e+00	2.363475e-08	3.958443e-07	
132	2.089296e+09,	0.000000e+00	2.474272e-08	4.051468e-07	
133	2.137962e+09,	0.000000e+00	2.590234e-08	4.146718e-07	
134	2.187762e+09,	0.000000e+00	2.711599e-08	4.244250e-07	
135	2.238721e+09,	0.000000e+00	2.838615e-08	4.344120e-07	
136	2.290868e+09,	0.000000e+00	2.971543e-08	4.446388e-07	
137	2.344229e+09,	0.000000e+00	3.110654e-08	4.551114e-07	
138	2.398833e+09,	0.000000e+00	3.256232e-08	4.658363e-07	
139	2.454709e+09,	0.000000e+00	3.408573e-08	4.768197e-07	
140	2.511886e+09,	0.000000e+00	3.567986e-08	4.880683e-07	
141	2.570396e+09,	0.000000e+00	3.734794e-08	4.995890e-07	
142	2.630268e+09,	0.000000e+00	3.909335e-08	5.113888e-07	
143	2.691535e+09,	0.000000e+00	4.091961e-08	5.234750e-07	
144	2.754229e+09,	0.000000e+00	4.283039e-08	5.358550e-07	
145	2.818383e+09,	0.000000e+00	4.482953e-08	5.485367e-07	
146	2.884032e+09,	0.000000e+00	4.692104e-08	5.615278e-07	
147	2.951209e+09,	0.000000e+00	4.910908e-08	5.748366e-07	
148	3.019952e+09,	0.000000e+00	5.139803e-08	5.884716e-07	
149	3.090295e+09,	0.000000e+00	5.379242e-08	6.024414e-07	
150	3.162278e+09,	0.000000e+00	5.629698e-08	6.167552e-07	
151	3.235937e+09,	0.000000e+00	5.891667e-08	6.314221e-07	
152	3.311311e+09,	0.000000e+00	6.165663e-08	6.464519e-07	
153	3.388442e+09,	0.000000e+00	6.452223e-08	6.618543e-07	
154	3.467369e+09,	0.000000e+00	6.751906e-08	6.776397e-07	
155	3.548134e+09,	0.000000e+00	7.065294e-08	6.938187e-07	
156	3.630781e+09,	0.000000e+00	7.392993e-08	7.104022e-07	
157	3.715352e+09,	0.000000e+00	7.735636e-08	7.274015e-07	
158	3.801894e+09,	0.000000e+00	8.093879e-08	7.448284e-07	
159	3.890451e+09,	0.000000e+00	8.468405e-08	7.626950e-07	
160	3.981072e+09,	0.000000e+00	8.859927e-08	7.810139e-07	
161	4.073803e+09,	0.000000e+00	9.269183e-08	7.997980e-07	
162	4.168694e+09,	0.000000e+00	9.696942e-08	8.190609e-07	
163	4.265795e+09,	0.000000e+00	1.014400e-07	8.388165e-07	
164	4.365158e+09,	0.000000e+00	1.061119e-07	8.590794e-07	
165	4.466836e+09,	0.000000e+00	1.109938e-07	8.798644e-07	
166	4.570882e+09,	0.000000e+00	1.160945e-07	9.011872e-07	
167	4.677351e+09,	0.000000e+00	1.214233e-07	9.230639e-07	
168	4.786301e+09,	0.000000e+00	1.269899e-07	9.455113e-07	
169	4.897788e+09,	0.000000e+00	1.328043e-07	9.685468e-07	
170	5.011872e+09,	0.000000e+00	1.388766e-07	9.921885e-07	

Index   frequency                       abs(re(i(vload) abs(im(i(vload) 
--------------------------------------------------------------------------------
171	5.128614e+09,	0.000000e+00	1.452177e-07	1.016455e-06	
172	5.248075e+09,	0.000000e+00	1.518386e-07	1.041366e-06	
173	5.370318e+09,	0.000000e+00	1.587507e-07	1.066942e-06	
174	5.495409e+09,	0.000000e+00	1.659659e-07	1.093204e-06	
175	5.623413e+09,	0.000000e+00	1.734963e-07	1.120173e-06	
176	5.754399e+09,	0.000000e+00	1.813546e-07	1.147873e-06	
177	5.888437e+09,	0.000000e+00	1.895537e-07	1.176327e-06	
178	6.025596e+09,	0.000000e+00	1.981070e-07	1.205560e-06	
179	6.165950e+09,	0.000000e+00	2.070283e-07	1.235597e-06	
180	6.309573e+09,	0.000000e+00	2.163319e-07	1.266466e-06	
181	6.456542e+09,	0.000000e+00	2.260322e-07	1.298194e-06	
182	6.606934e+09,	0.000000e+00	2.361443e-07	1.330809e-06	
183	6.760830e+09,	0.000000e+00	2.466835e-07	1.364344e-06	
184	6.918310e+09,	0.000000e+00	2.576655e-07	1.398827e-06	
185	7.079458e+09,	0.000000e+00	2.691064e-07	1.434293e-06	
186	7.244360e+09,	0.000000e+00	2.810227e-07	1.470776e-06	
187	7.413102e+09,	0.000000e+00	2.934312e-07	1.508310e-06	
188	7.585776e+09,	0.000000e+00	3.063489e-07	1.546934e-06	
189	7.762471e+09,	0.000000e+00	3.197935e-07	1.586684e-06	
190	7.943282e+09,	0.000000e+00	3.337824e-07	1.627602e-06	
191	8.128305e+09,	0.000000e+00	3.483338e-07	1.669730e-06	
192	8.317638e+09,	0.000000e+00	3.634658e-07	1.713110e-06	
193	8.511380e+09,	0.000000e+00	3.791968e-07	1.757788e-06	
194	8.709636e+09,	0.000000e+00	3.955454e-07	1.803811e-06	
195	8.912509e+09,	0.000000e+00	4.125302e-07	1.851228e-06	
196	9.120108e+09,	0.000000e+00	4.301699e-07	1.900090e-06	
197	9.332543e+09,	0.000000e+00	4.484834e-07	1.950450e-06	
198	9.549926e+09,	0.000000e+00	4.674892e-07	2.002364e-06	
199	9.772372e+09,	0.000000e+00	4.872061e-07	2.055888e-06	
200	1.000000e+10,	0.000000e+00	5.076525e-07	2.111083e-06	
201	1.023293e+10,	0.000000e+00	5.288466e-07	2.168010e-06	
202	1.047129e+10,	0.000000e+00	5.508063e-07	2.226734e-06	
203	1.071519e+10,	0.000000e+00	5.735492e-07	2.287321e-06	
204	1.096478e+10,	0.000000e+00	5.970923e-07	2.349840e-06	
205	1.122018e+10,	0.000000e+00	6.214521e-07	2.414364e-06	
206	1.148154e+10,	0.000000e+00	6.466444e-07	2.480965e-06	
207	1.174898e+10,	0.000000e+00	6.726843e-07	2.549723e-06	
208	1.202264e+10,	0.000000e+00	6.995860e-07	2.620715e-06	
209	1.230269e+10,	0.000000e+00	7.273627e-07	2.694024e-06	
210	1.258925e+10,	0.000000e+00	7.560265e-07	2.769735e-06	
211	1.288250e+10,	0.000000e+00	7.855883e-07	2.847936e-06	
212	1.318257e+10,	0.000000e+00	8.160576e-07	2.928717e-06	
213	1.348963e+10,	0.000000e+00	8.474426e-07	3.012171e-06	
214	1.380384e+10,	0.000000e+00	8.797497e-07	3.098395e-06	
215	1.412538e+10,	0.000000e+00	9.129837e-07	3.187486e-06	
216	1.445440e+10,	0.000000e+00	9.471475e-07	3.279546e-06	
217	1.479108e+10,	0.000000e+00	9.822420e-07	3.374679e-06	
218	1.513561e+10,	0.000000e+00	1.018266e-06	3.472991e-06	
219	1.548817e+10,	0.000000e+00	1.055216e-06	3.574591e-06	
220	1.584893e+10,	0.000000e+00	1.093087e-06	3.679591e-06	
221	1.621810e+10,	0.000000e+00	1.131870e-06	3.788104e-06	
222	1.659587e+10,	0.000000e+00	1.171553e-06	3.900248e-06	
223	1.698244e+10,	0.000000e+00	1.212125e-06	4.016139e-06	
224	1.737801e+10,	0.000000e+00	1.253568e-06	4.135899e-06	
225	1.778279e+10,	0.000000e+00	1.295862e-06	4.259649e-06	
226	1.819701e+10,	0.000000e+00	1.338987e-06	4.387515e-06	
227	1.862087e+10,	0.000000e+00	1.382916e-06	4.519620e-06	
228	1.905461e+10,	0.000000e+00	1.427621e-06	4.656094e-06	

Index   frequency                       abs(re(i(vload) abs(im(i(vload) 
--------------------------------------------------------------------------------
229	1.949845e+10,	0.000000e+00	1.473071e-06	4.797065e-06	
230	1.995262e+10,	0.000000e+00	1.519231e-06	4.942662e-06	
231	2.041738e+10,	0.000000e+00	1.566063e-06	5.093016e-06	
232	2.089296e+10,	0.000000e+00	1.613526e-06	5.248260e-06	
233	2.137962e+10,	0.000000e+00	1.661577e-06	5.408524e-06	
234	2.187762e+10,	0.000000e+00	1.710168e-06	5.573944e-06	
235	2.238721e+10,	0.000000e+00	1.759249e-06	5.744651e-06	
236	2.290868e+10,	0.000000e+00	1.808767e-06	5.920780e-06	
237	2.344229e+10,	0.000000e+00	1.858667e-06	6.102463e-06	
238	2.398833e+10,	0.000000e+00	1.908889e-06	6.289835e-06	
239	2.454709e+10,	0.000000e+00	1.959373e-06	6.483029e-06	
240	2.511886e+10,	0.000000e+00	2.010056e-06	6.682177e-06	
241	2.570396e+10,	0.000000e+00	2.060870e-06	6.887412e-06	
242	2.630268e+10,	0.000000e+00	2.111750e-06	7.098867e-06	
243	2.691535e+10,	0.000000e+00	2.162625e-06	7.316671e-06	
244	2.754229e+10,	0.000000e+00	2.213424e-06	7.540957e-06	
245	2.818383e+10,	0.000000e+00	2.264074e-06	7.771855e-06	
246	2.884032e+10,	0.000000e+00	2.314502e-06	8.009492e-06	
247	2.951209e+10,	0.000000e+00	2.364632e-06	8.254000e-06	
248	3.019952e+10,	0.000000e+00	2.414389e-06	8.505505e-06	
249	3.090295e+10,	0.000000e+00	2.463697e-06	8.764135e-06	
250	3.162278e+10,	0.000000e+00	2.512479e-06	9.030017e-06	
251	3.235937e+10,	0.000000e+00	2.560659e-06	9.303279e-06	
252	3.311311e+10,	0.000000e+00	2.608159e-06	9.584046e-06	
253	3.388442e+10,	0.000000e+00	2.654905e-06	9.872446e-06	
254	3.467369e+10,	0.000000e+00	2.700819e-06	1.016861e-05	
255	3.548134e+10,	0.000000e+00	2.745828e-06	1.047265e-05	
256	3.630781e+10,	0.000000e+00	2.789857e-06	1.078471e-05	
257	3.715352e+10,	0.000000e+00	2.832833e-06	1.110492e-05	
258	3.801894e+10,	0.000000e+00	2.874684e-06	1.143339e-05	
259	3.890451e+10,	0.000000e+00	2.915338e-06	1.177027e-05	
260	3.981072e+10,	0.000000e+00	2.954726e-06	1.211568e-05	
261	4.073803e+10,	0.000000e+00	2.992781e-06	1.246977e-05	
262	4.168694e+10,	0.000000e+00	3.029434e-06	1.283266e-05	
263	4.265795e+10,	0.000000e+00	3.064620e-06	1.320449e-05	
264	4.365158e+10,	0.000000e+00	3.098276e-06	1.358542e-05	
265	4.466836e+10,	0.000000e+00	3.130337e-06	1.397557e-05	
266	4.570882e+10,	0.000000e+00	3.160744e-06	1.437511e-05	
267	4.677351e+10,	0.000000e+00	3.189436e-06	1.478417e-05	
268	4.786301e+10,	0.000000e+00	3.216353e-06	1.520293e-05	
269	4.897788e+10,	0.000000e+00	3.241438e-06	1.563153e-05	
